Freq.	V(vo)/V(Vi)
1.00000000000000e+002	(-4.40033564045647e+001dB,-9.03743928470207e+001°)
1.00230523807790e+002	(-4.39833460890299e+001dB,-9.03751965322848e+001°)
1.00461579027840e+002	(-4.39633357258606e+001dB,-9.03760022108794e+001°)
1.00693166885180e+002	(-4.39433253146826e+001dB,-9.03768098871078e+001°)
1.00925288607668e+002	(-4.39233148555836e+001dB,-9.03776195652728e+001°)
1.01157945425990e+002	(-4.39033043481100e+001dB,-9.03784312497020e+001°)
1.01391138573668e+002	(-4.38832937920390e+001dB,-9.03792449447288e+001°)
1.01624869287070e+002	(-4.38632831873008e+001dB,-9.03800606546893e+001°)
1.01859138805412e+002	(-4.38432725335161e+001dB,-9.03808783839456e+001°)
1.02093948370768e+002	(-4.38232618306902e+001dB,-9.03816981368518e+001°)
1.02329299228075e+002	(-4.38032510784417e+001dB,-9.03825199177904e+001°)
1.02565192625141e+002	(-4.37832402764653e+001dB,-9.03833437311496e+001°)
1.02801629812647e+002	(-4.37632294245317e+001dB,-9.03841695813321e+001°)
1.03038612044162e+002	(-4.37432185225648e+001dB,-9.03849974727373e+001°)
1.03276140576140e+002	(-4.37232075701792e+001dB,-9.03858274097896e+001°)
1.03514216667934e+002	(-4.37031965673737e+001dB,-9.03866593969140e+001°)
1.03752841581801e+002	(-4.36831855136834e+001dB,-9.03874934385595e+001°)
1.03992016582906e+002	(-4.36631744088737e+001dB,-9.03883295391798e+001°)
1.04231742939330e+002	(-4.36431632528633e+001dB,-9.03891677032348e+001°)
1.04472021922080e+002	(-4.36231520454926e+001dB,-9.03900079351941e+001°)
1.04712854805090e+002	(-4.36031407862150e+001dB,-9.03908502395584e+001°)
1.04954242865232e+002	(-4.35831294748689e+001dB,-9.03916946208229e+001°)
1.05196187382322e+002	(-4.35631181113683e+001dB,-9.03925410834891e+001°)
1.05438689639126e+002	(-4.35431066953180e+001dB,-9.03933896320835e+001°)
1.05681750921366e+002	(-4.35230952267070e+001dB,-9.03942402711285e+001°)
1.05925372517729e+002	(-4.35030837049833e+001dB,-9.03950930051806e+001°)
1.06169555719872e+002	(-4.34830721301339e+001dB,-9.03959478387842e+001°)
1.06414301822431e+002	(-4.34630605019131e+001dB,-9.03968047765031e+001°)
1.06659612123026e+002	(-4.34430488199970e+001dB,-9.03976638229205e+001°)
1.06905487922266e+002	(-4.34230370839062e+001dB,-9.03985249826326e+001°)
1.07151930523760e+002	(-4.34030252938545e+001dB,-9.03993882602188e+001°)
1.07398941234124e+002	(-4.33830134492060e+001dB,-9.04002536603094e+001°)
1.07646521362983e+002	(-4.33630015500178e+001dB,-9.04011211875125e+001°)
1.07894672222983e+002	(-4.33429895958831e+001dB,-9.04019908464677e+001°)
1.08143395129794e+002	(-4.33229775865482e+001dB,-9.04028626418245e+001°)
1.08392691402120e+002	(-4.33029655214497e+001dB,-9.04037365782511e+001°)
1.08642562361706e+002	(-4.32829534010257e+001dB,-9.04046126603863e+001°)
1.08893009333343e+002	(-4.32629412244020e+001dB,-9.04054908929385e+001°)
1.09144033644875e+002	(-4.32429289916285e+001dB,-9.04063712805866e+001°)
1.09395636627209e+002	(-4.32229167024458e+001dB,-9.04072538280335e+001°)
1.09647819614318e+002	(-4.32029043562844e+001dB,-9.04081385400090e+001°)
1.09900583943252e+002	(-4.31828919533450e+001dB,-9.04090254212213e+001°)
1.10153930954141e+002	(-4.31628794931332e+001dB,-9.04099144764172e+001°)
1.10407861990207e+002	(-4.31428669753072e+001dB,-9.04108057103530e+001°)
1.10662378397766e+002	(-4.31228543996013e+001dB,-9.04116991277912e+001°)
1.10917481526240e+002	(-4.31028417658258e+001dB,-9.04125947335036e+001°)
1.11173172728159e+002	(-4.30828290737898e+001dB,-9.04134925322732e+001°)
1.11429453359173e+002	(-4.30628163231465e+001dB,-9.04143925288994e+001°)
1.11686324778056e+002	(-4.30428035137799e+001dB,-9.04152947281868e+001°)
1.11943788346715e+002	(-4.30227906450321e+001dB,-9.04161991349769e+001°)
1.12201845430196e+002	(-4.30027777169388e+001dB,-9.04171057540877e+001°)
1.12460497396692e+002	(-4.29827647292254e+001dB,-9.04180145903662e+001°)
1.12719745617551e+002	(-4.29627516813077e+001dB,-9.04189256486842e+001°)
1.12979591467279e+002	(-4.29427385733717e+001dB,-9.04198389338916e+001°)
1.13240036323555e+002	(-4.29227254048305e+001dB,-9.04207544508838e+001°)
1.13501081567231e+002	(-4.29027121756361e+001dB,-9.04216722045464e+001°)
1.13762728582343e+002	(-4.28826988850449e+001dB,-9.04225921998053e+001°)
1.14024978756117e+002	(-4.28626855333147e+001dB,-9.04235144415567e+001°)
1.14287833478977e+002	(-4.28426721198536e+001dB,-9.04244389347437e+001°)
1.14551294144553e+002	(-4.28226586443768e+001dB,-9.04253656843105e+001°)
1.14815362149688e+002	(-4.28026451068298e+001dB,-9.04262946952011e+001°)
1.15080038894443e+002	(-4.27826315066166e+001dB,-9.04272259723982e+001°)
1.15345325782109e+002	(-4.27626178437572e+001dB,-9.04281595208678e+001°)
1.15611224219209e+002	(-4.27426041176530e+001dB,-9.04290953456159e+001°)
1.15877735615512e+002	(-4.27225903282440e+001dB,-9.04300334516367e+001°)
1.16144861384034e+002	(-4.27025764752375e+001dB,-9.04309738439468e+001°)
1.16412602941049e+002	(-4.26825625581853e+001dB,-9.04319165275850e+001°)
1.16680961706096e+002	(-4.26625485767918e+001dB,-9.04328615075901e+001°)
1.16949939101987e+002	(-4.26425345309147e+001dB,-9.04338087890125e+001°)
1.17219536554813e+002	(-4.26225204201787e+001dB,-9.04347583769213e+001°)
1.17489755493952e+002	(-4.26025062442841e+001dB,-9.04357102763961e+001°)
1.17760597352080e+002	(-4.25824920029302e+001dB,-9.04366644925270e+001°)
1.18032063565172e+002	(-4.25624776958146e+001dB,-9.04376210304236e+001°)
1.18304155572516e+002	(-4.25424633227879e+001dB,-9.04385798951913e+001°)
1.18576874816716e+002	(-4.25224488830050e+001dB,-9.04395410919889e+001°)
1.18850222743701e+002	(-4.25024343768537e+001dB,-9.04405046259231e+001°)
1.19124200802737e+002	(-4.24824198037175e+001dB,-9.04414705021678e+001°)
1.19398810446427e+002	(-4.24624051632099e+001dB,-9.04424387258900e+001°)
1.19674053130724e+002	(-4.24423904550973e+001dB,-9.04434093022712e+001°)
1.19949930314937e+002	(-4.24223756789903e+001dB,-9.04443822365070e+001°)
1.20226443461741e+002	(-4.24023608346524e+001dB,-9.04453575337995e+001°)
1.20503594037179e+002	(-4.23823459219228e+001dB,-9.04463351993624e+001°)
1.20781383510677e+002	(-4.23623309403306e+001dB,-9.04473152384328e+001°)
1.21059813355048e+002	(-4.23423158894035e+001dB,-9.04482976562669e+001°)
1.21338885046497e+002	(-4.23223007690535e+001dB,-9.04492824581094e+001°)
1.21618600064636e+002	(-4.23022855788825e+001dB,-9.04502696492353e+001°)
1.21898959892486e+002	(-4.22822703185679e+001dB,-9.04512592349277e+001°)
1.22179966016487e+002	(-4.22622549877858e+001dB,-9.04522512204872e+001°)
1.22461619926504e+002	(-4.22422395862881e+001dB,-9.04532456112173e+001°)
1.22743923115840e+002	(-4.22222241135933e+001dB,-9.04542424124506e+001°)
1.23026877081238e+002	(-4.22022085693730e+001dB,-9.04552416295232e+001°)
1.23310483322890e+002	(-4.21821929534516e+001dB,-9.04562432677749e+001°)
1.23594743344450e+002	(-4.21621772654976e+001dB,-9.04572473325724e+001°)
1.23879658653036e+002	(-4.21421615049465e+001dB,-9.04582538293009e+001°)
1.24165230759240e+002	(-4.21221456716951e+001dB,-9.04592627633406e+001°)
1.24451461177138e+002	(-4.21021297654073e+001dB,-9.04602741400889e+001°)
1.24738351424294e+002	(-4.20821137855912e+001dB,-9.04612879649755e+001°)
1.25025903021771e+002	(-4.20620977320618e+001dB,-9.04623042434194e+001°)
1.25314117494141e+002	(-4.20420816041698e+001dB,-9.04633229808797e+001°)
1.25602996369487e+002	(-4.20220654020356e+001dB,-9.04643441827861e+001°)
1.25892541179416e+002	(-4.20020491250066e+001dB,-9.04653678546285e+001°)
1.26182753459066e+002	(-4.19820327727374e+001dB,-9.04663940018863e+001°)
1.26473634747114e+002	(-4.19620163449579e+001dB,-9.04674226300522e+001°)
1.26765186585784e+002	(-4.19419998415509e+001dB,-9.04684537446298e+001°)
1.27057410520853e+002	(-4.19219832617801e+001dB,-9.04694873511540e+001°)
1.27350308101665e+002	(-4.19019666054480e+001dB,-9.04705234551610e+001°)
1.27643880881134e+002	(-4.18819498722009e+001dB,-9.04715620621997e+001°)
1.27938130415752e+002	(-4.18619330615293e+001dB,-9.04726031778424e+001°)
1.28233058265601e+002	(-4.18419161734620e+001dB,-9.04736468076483e+001°)
1.28528665994361e+002	(-4.18218992072548e+001dB,-9.04746929572261e+001°)
1.28824955169313e+002	(-4.18018821628560e+001dB,-9.04757416321700e+001°)
1.29121927361353e+002	(-4.17818650396723e+001dB,-9.04767928381080e+001°)
1.29419584144998e+002	(-4.17618478374946e+001dB,-9.04778465806688e+001°)
1.29717927098395e+002	(-4.17418305557260e+001dB,-9.04789028655086e+001°)
1.30016957803328e+002	(-4.17218131943085e+001dB,-9.04799616982750e+001°)
1.30316677845229e+002	(-4.17017957525646e+001dB,-9.04810230846583e+001°)
1.30617088813183e+002	(-4.16817782304328e+001dB,-9.04820870303338e+001°)
1.30918192299940e+002	(-4.16617606271553e+001dB,-9.04831535410216e+001°)
1.31219989901920e+002	(-4.16417429428212e+001dB,-9.04842226224136e+001°)
1.31522483219223e+002	(-4.16217251767464e+001dB,-9.04852942802613e+001°)
1.31825673855640e+002	(-4.16017073286310e+001dB,-9.04863685203023e+001°)
1.32129563418657e+002	(-4.15816893980960e+001dB,-9.04874453482965e+001°)
1.32434153519466e+002	(-4.15616713847607e+001dB,-9.04885247700210e+001°)
1.32739445772973e+002	(-4.15416532881654e+001dB,-9.04896067912657e+001°)
1.33045441797808e+002	(-4.15216351082346e+001dB,-9.04906914178122e+001°)
1.33352143216332e+002	(-4.15016168441966e+001dB,-9.04917786555021e+001°)
1.33659551654643e+002	(-4.14815984956635e+001dB,-9.04928685101674e+001°)
1.33967668742593e+002	(-4.14615800626315e+001dB,-9.04939609876276e+001°)
1.34276496113786e+002	(-4.14415615444006e+001dB,-9.04950560937617e+001°)
1.34586035405594e+002	(-4.14215429406548e+001dB,-9.04961538344350e+001°)
1.34896288259165e+002	(-4.14015242509991e+001dB,-9.04972542155422e+001°)
1.35207256319427e+002	(-4.13815054750367e+001dB,-9.04983572429818e+001°)
1.35518941235103e+002	(-4.13614866125232e+001dB,-9.04994629226633e+001°)
1.35831344658715e+002	(-4.13414676626723e+001dB,-9.05005712605389e+001°)
1.36144468246594e+002	(-4.13214486253132e+001dB,-9.05016822625440e+001°)
1.36458313658892e+002	(-4.13014295000416e+001dB,-9.05027959346373e+001°)
1.36772882559584e+002	(-4.12814102865285e+001dB,-9.05039122827893e+001°)
1.37088176616484e+002	(-4.12613909843661e+001dB,-9.05050313129938e+001°)
1.37404197501251e+002	(-4.12413715931444e+001dB,-9.05061530312524e+001°)
1.37720946889394e+002	(-4.12213521120660e+001dB,-9.05072774436090e+001°)
1.38038426460288e+002	(-4.12013325411801e+001dB,-9.05084045560684e+001°)
1.38356637897177e+002	(-4.11813128799168e+001dB,-9.05095343746907e+001°)
1.38675582887188e+002	(-4.11612931278587e+001dB,-9.05106669055420e+001°)
1.38995263121334e+002	(-4.11412732846635e+001dB,-9.05118021546932e+001°)
1.39315680294529e+002	(-4.11212533497556e+001dB,-9.05129401282487e+001°)
1.39636836105593e+002	(-4.11012333228658e+001dB,-9.05140808323084e+001°)
1.39958732257261e+002	(-4.10812132033377e+001dB,-9.05152242730111e+001°)
1.40281370456195e+002	(-4.10611929908981e+001dB,-9.05163704564838e+001°)
1.40604752412990e+002	(-4.10411726852722e+001dB,-9.05175193888719e+001°)
1.40928879842186e+002	(-4.10211522857202e+001dB,-9.05186710763660e+001°)
1.41253754462274e+002	(-4.10011317920404e+001dB,-9.05198255251348e+001°)
1.41579377995707e+002	(-4.09811112037976e+001dB,-9.05209827413757e+001°)
1.41905752168908e+002	(-4.09610905203232e+001dB,-9.05221427313175e+001°)
1.42232878712281e+002	(-4.09410697414093e+001dB,-9.05233055011799e+001°)
1.42560759360218e+002	(-4.09210488665377e+001dB,-9.05244710572097e+001°)
1.42889395851109e+002	(-4.09010278954192e+001dB,-9.05256394056576e+001°)
1.43218789927353e+002	(-4.08810068273772e+001dB,-9.05268105528148e+001°)
1.43548943335365e+002	(-4.08609856618870e+001dB,-9.05279845049791e+001°)
1.43879857825583e+002	(-4.08409643986535e+001dB,-9.05291612684443e+001°)
1.44211535152486e+002	(-4.08209430372252e+001dB,-9.05303408495343e+001°)
1.44543977074592e+002	(-4.08009215772256e+001dB,-9.05315232545838e+001°)
1.44877185354475e+002	(-4.07809000181217e+001dB,-9.05327084899473e+001°)
1.45211161758773e+002	(-4.07608783593787e+001dB,-9.05338965620001e+001°)
1.45545908058195e+002	(-4.07408566008450e+001dB,-9.05350874771092e+001°)
1.45881426027534e+002	(-4.07208347415188e+001dB,-9.05362812417049e+001°)
1.46217717445671e+002	(-4.07008127816299e+001dB,-9.05374778621629e+001°)
1.46554784095590e+002	(-4.06807907199406e+001dB,-9.05386773449617e+001°)
1.46892627764385e+002	(-4.06607685565225e+001dB,-9.05398796965139e+001°)
1.47231250243271e+002	(-4.06407462908276e+001dB,-9.05410849232897e+001°)
1.47570653327588e+002	(-4.06207239221516e+001dB,-9.05422930317831e+001°)
1.47910838816819e+002	(-4.06007014502511e+001dB,-9.05435040284707e+001°)
1.48251808514594e+002	(-4.05806788745714e+001dB,-9.05447179198706e+001°)
1.48593564228699e+002	(-4.05606561947104e+001dB,-9.05459347125076e+001°)
1.48936107771090e+002	(-4.05406334099549e+001dB,-9.05471544129357e+001°)
1.49279440957898e+002	(-4.05206105200525e+001dB,-9.05483770276995e+001°)
1.49623565609442e+002	(-4.05005875243627e+001dB,-9.05496025633833e+001°)
1.49968483550236e+002	(-4.04805644227057e+001dB,-9.05508310265619e+001°)
1.50314196609001e+002	(-4.04605412141281e+001dB,-9.05520624238695e+001°)
1.50660706618673e+002	(-4.04405178984454e+001dB,-9.05532967619095e+001°)
1.51008015416413e+002	(-4.04204944751625e+001dB,-9.05545340473235e+001°)
1.51356124843619e+002	(-4.04004709434732e+001dB,-9.05557742867870e+001°)
1.51705036745932e+002	(-4.03804473034951e+001dB,-9.05570174869322e+001°)
1.52054752973248e+002	(-4.03604235539545e+001dB,-9.05582636544974e+001°)
1.52405275379728e+002	(-4.03403996950412e+001dB,-9.05595127961429e+001°)
1.52756605823806e+002	(-4.03203757256315e+001dB,-9.05607649186316e+001°)
1.53108746168202e+002	(-4.03003516456791e+001dB,-9.05620200286716e+001°)
1.53461698279928e+002	(-4.02803274546725e+001dB,-9.05632781330151e+001°)
1.53815464030302e+002	(-4.02603031515578e+001dB,-9.05645392384707e+001°)
1.54170045294954e+002	(-4.02402787365904e+001dB,-9.05658033517746e+001°)
1.54525443953840e+002	(-4.02202542086345e+001dB,-9.05670704797743e+001°)
1.54881661891247e+002	(-4.02002295674777e+001dB,-9.05683406292690e+001°)
1.55238700995807e+002	(-4.01802048125194e+001dB,-9.05696138071003e+001°)
1.55596563160506e+002	(-4.01601799432339e+001dB,-9.05708900201249e+001°)
1.55955250282694e+002	(-4.01401549590157e+001dB,-9.05721692752196e+001°)
1.56314764264094e+002	(-4.01201298595657e+001dB,-9.05734515792570e+001°)
1.56675107010813e+002	(-4.01001046441963e+001dB,-9.05747369391493e+001°)
1.57036280433354e+002	(-4.00800793123719e+001dB,-9.05760253618276e+001°)
1.57398286446620e+002	(-4.00600538634003e+001dB,-9.05773168542315e+001°)
1.57761126969933e+002	(-4.00400282968179e+001dB,-9.05786114233159e+001°)
1.58124803927037e+002	(-4.00200026124674e+001dB,-9.05799090760321e+001°)
1.58489319246110e+002	(-3.99999768092632e+001dB,-9.05812098194007e+001°)
1.58854674859776e+002	(-3.99799508869658e+001dB,-9.05825136604112e+001°)
1.59220872705115e+002	(-3.99599248450244e+001dB,-9.05838206060891e+001°)
1.59587914723672e+002	(-3.99398986827318e+001dB,-9.05851306634868e+001°)
1.59955802861465e+002	(-3.99198723995320e+001dB,-9.05864438396626e+001°)
1.60324539069002e+002	(-3.98998459950210e+001dB,-9.05877601416828e+001°)
1.60694125301286e+002	(-3.98798194685609e+001dB,-9.05890795766445e+001°)
1.61064563517825e+002	(-3.98597928196651e+001dB,-9.05904021516589e+001°)
1.61435855682647e+002	(-3.98397660476906e+001dB,-9.05917278738581e+001°)
1.61808003764305e+002	(-3.98197391519142e+001dB,-9.05930567503967e+001°)
1.62181009735891e+002	(-3.97997121319189e+001dB,-9.05943887884302e+001°)
1.62554875575047e+002	(-3.97796849872079e+001dB,-9.05957239951360e+001°)
1.62929603263970e+002	(-3.97596577172044e+001dB,-9.05970623777090e+001°)
1.63305194789432e+002	(-3.97396303210977e+001dB,-9.05984039433877e+001°)
1.63681652142779e+002	(-3.97196027985372e+001dB,-9.05997486993829e+001°)
1.64058977319952e+002	(-3.96995751488612e+001dB,-9.06010966529591e+001°)
1.64437172321491e+002	(-3.96795473714050e+001dB,-9.06024478113916e+001°)
1.64816239152549e+002	(-3.96595194658100e+001dB,-9.06038021819444e+001°)
1.65196179822900e+002	(-3.96394914314061e+001dB,-9.06051597719375e+001°)
1.65576996346951e+002	(-3.96194632672892e+001dB,-9.06065205887109e+001°)
1.65958690743754e+002	(-3.95994349731695e+001dB,-9.06078846395891e+001°)
1.66341265037015e+002	(-3.95794065484459e+001dB,-9.06092519319287e+001°)
1.66724721255104e+002	(-3.95593779922059e+001dB,-9.06106224731290e+001°)
1.67109061431069e+002	(-3.95393493042286e+001dB,-9.06119962705612e+001°)
1.67494287602642e+002	(-3.95193204837501e+001dB,-9.06133733316479e+001°)
1.67880401812254e+002	(-3.94992915301581e+001dB,-9.06147536638226e+001°)
1.68267406107045e+002	(-3.94792624427603e+001dB,-9.06161372745402e+001°)
1.68655302538872e+002	(-3.94592332211702e+001dB,-9.06175241712532e+001°)
1.69044093164324e+002	(-3.94392038645355e+001dB,-9.06189143614702e+001°)
1.69433780044731e+002	(-3.94191743723866e+001dB,-9.06203078526788e+001°)
1.69824365246172e+002	(-3.93991447439428e+001dB,-9.06217046524159e+001°)
1.70215850839493e+002	(-3.93791149786516e+001dB,-9.06231047682207e+001°)
1.70608238900310e+002	(-3.93590850758806e+001dB,-9.06245082076552e+001°)
1.71001531509027e+002	(-3.93390550348401e+001dB,-9.06259149783080e+001°)
1.71395730750840e+002	(-3.93190248552776e+001dB,-9.06273250877459e+001°)
1.71790838715757e+002	(-3.92989945363203e+001dB,-9.06287385436082e+001°)
1.72186857498599e+002	(-3.92789640772470e+001dB,-9.06301553535352e+001°)
1.72583789199018e+002	(-3.92589334773332e+001dB,-9.06315755251868e+001°)
1.72981635921508e+002	(-3.92389027363916e+001dB,-9.06329990661980e+001°)
1.73380399775412e+002	(-3.92188718533062e+001dB,-9.06344259843021e+001°)
1.73780082874935e+002	(-3.91988408275750e+001dB,-9.06358562871961e+001°)
1.74180687339159e+002	(-3.91788096585388e+001dB,-9.06372899826059e+001°)
1.74582215292048e+002	(-3.91587783453809e+001dB,-9.06387270782986e+001°)
1.74984668862463e+002	(-3.91387468878987e+001dB,-9.06401675820008e+001°)
1.75388050184174e+002	(-3.91187152849611e+001dB,-9.06416115015400e+001°)
1.75792361395867e+002	(-3.90986835360507e+001dB,-9.06430588447074e+001°)
1.76197604641161e+002	(-3.90786516404158e+001dB,-9.06445096193372e+001°)
1.76603782068614e+002	(-3.90586195974556e+001dB,-9.06459638332653e+001°)
1.77010895831740e+002	(-3.90385874067206e+001dB,-9.06474214943378e+001°)
1.77418948089014e+002	(-3.90185550670640e+001dB,-9.06488826104800e+001°)
1.77827941003890e+002	(-3.89985225781071e+001dB,-9.06503471895640e+001°)
1.78237876744807e+002	(-3.89784899390822e+001dB,-9.06518152395188e+001°)
1.78648757485203e+002	(-3.89584571492959e+001dB,-9.06532867682889e+001°)
1.79060585403527e+002	(-3.89384242080512e+001dB,-9.06547617838327e+001°)
1.79473362683250e+002	(-3.89183911146481e+001dB,-9.06562402941329e+001°)
1.79887091512876e+002	(-3.88983578683833e+001dB,-9.06577223071911e+001°)
1.80301774085954e+002	(-3.88783244686274e+001dB,-9.06592078310196e+001°)
1.80717412601090e+002	(-3.88582909144391e+001dB,-9.06606968736777e+001°)
1.81134009261958e+002	(-3.88382572054140e+001dB,-9.06621894431959e+001°)
1.81551566277311e+002	(-3.88182233404499e+001dB,-9.06636855476929e+001°)
1.81970085860996e+002	(-3.87981893192898e+001dB,-9.06651851952242e+001°)
1.82389570231961e+002	(-3.87781551410566e+001dB,-9.06666883939268e+001°)
1.82810021614272e+002	(-3.87581208046380e+001dB,-9.06681951519673e+001°)
1.83231442237119e+002	(-3.87380863097672e+001dB,-9.06697054774682e+001°)
1.83653834334832e+002	(-3.87180516555567e+001dB,-9.06712193786266e+001°)
1.84077200146893e+002	(-3.86980168412700e+001dB,-9.06727368636313e+001°)
1.84501541917945e+002	(-3.86779818661671e+001dB,-9.06742579407122e+001°)
1.84926861897805e+002	(-3.86579467295048e+001dB,-9.06757826181084e+001°)
1.85353162341478e+002	(-3.86379114305360e+001dB,-9.06773109040775e+001°)
1.85780445509167e+002	(-3.86178759685879e+001dB,-9.06788428068933e+001°)
1.86208713666284e+002	(-3.85978403427522e+001dB,-9.06803783348729e+001°)
1.86637969083464e+002	(-3.85778045522718e+001dB,-9.06819174963352e+001°)
1.87068214036577e+002	(-3.85577685965402e+001dB,-9.06834602996103e+001°)
