Freq.	V(vo)
1.00000000000000e+02	(-2.52604946460745e-04dB,-6.09586311791120e+00°)
1.00230523807790e+02	(-2.52567231586232e-04dB,-6.10992891659882e+00°)
1.00461579027840e+02	(-2.52529355934534e-04dB,-6.12402723348413e+00°)
1.00693166885180e+02	(-2.52491318940541e-04dB,-6.13815814418003e+00°)
1.00925288607668e+02	(-2.52453120045891e-04dB,-6.15232172447830e+00°)
1.01157945425990e+02	(-2.52414758690297e-04dB,-6.16651805035008e+00°)
1.01391138573668e+02	(-2.52376234314435e-04dB,-6.18074719794620e+00°)
1.01624869287070e+02	(-2.52337546348374e-04dB,-6.19500924359778e+00°)
1.01859138805412e+02	(-2.52298694250146e-04dB,-6.20930426381653e+00°)
1.02093948370768e+02	(-2.52259677449821e-04dB,-6.22363233529529e+00°)
1.02329299228075e+02	(-2.52220495383253e-04dB,-6.23799353490846e+00°)
1.02565192625141e+02	(-2.52181147496904e-04dB,-6.25238793971249e+00°)
1.02801629812647e+02	(-2.52141633232414e-04dB,-6.26681562694622e+00°)
1.03038612044162e+02	(-2.52101952027566e-04dB,-6.28127667403147e+00°)
1.03276140576140e+02	(-2.52062103324002e-04dB,-6.29577115857341e+00°)
1.03514216667934e+02	(-2.52022086567218e-04dB,-6.31029915836104e+00°)
1.03752841581801e+02	(-2.51981901190176e-04dB,-6.32486075136768e+00°)
1.03992016582906e+02	(-2.51941546643197e-04dB,-6.33945601575134e+00°)
1.04231742939330e+02	(-2.51901022365991e-04dB,-6.35408502985531e+00°)
1.04472021922080e+02	(-2.51860327805021e-04dB,-6.36874787220853e+00°)
1.04712854805090e+02	(-2.51819462399035e-04dB,-6.38344462152606e+00°)
1.04954242865232e+02	(-2.51778425596423e-04dB,-6.39817535670960e+00°)
1.05196187382322e+02	(-2.51737216838827e-04dB,-6.41294015684791e+00°)
1.05438689639126e+02	(-2.51695835575602e-04dB,-6.42773910121726e+00°)
1.05681750921366e+02	(-2.51654281251282e-04dB,-6.44257226928196e+00°)
1.05925372517729e+02	(-2.51612553310400e-04dB,-6.45743974069480e+00°)
1.06169555719872e+02	(-2.51570651209062e-04dB,-6.47234159529751e+00°)
1.06414301822431e+02	(-2.51528574391803e-04dB,-6.48727791312124e+00°)
1.06659612123026e+02	(-2.51486322306049e-04dB,-6.50224877438704e+00°)
1.06905487922266e+02	(-2.51443894404049e-04dB,-6.51725425950637e+00°)
1.07151930523760e+02	(-2.51401290138052e-04dB,-6.53229444908151e+00°)
1.07398941234124e+02	(-2.51358508965127e-04dB,-6.54736942390604e+00°)
1.07646521362983e+02	(-2.51315550339454e-04dB,-6.56247926496544e+00°)
1.07894672222983e+02	(-2.51272413706529e-04dB,-6.57762405343740e+00°)
1.08143395129794e+02	(-2.51229098533067e-04dB,-6.59280387069243e+00°)
1.08392691402120e+02	(-2.51185604272282e-04dB,-6.60801879829428e+00°)
1.08642562361706e+02	(-2.51141930392816e-04dB,-6.62326891800049e+00°)
1.08893009333343e+02	(-2.51098076339202e-04dB,-6.63855431176280e+00°)
1.09144033644875e+02	(-2.51054041589729e-04dB,-6.65387506172764e+00°)
1.09395636627209e+02	(-2.51009825596644e-04dB,-6.66923125023671e+00°)
1.09647819614318e+02	(-2.50965427834377e-04dB,-6.68462295982737e+00°)
1.09900583943252e+02	(-2.50920847768677e-04dB,-6.70005027323326e+00°)
1.10153930954141e+02	(-2.50876084862402e-04dB,-6.71551327338459e+00°)
1.10407861990207e+02	(-2.50831138591910e-04dB,-6.73101204340883e+00°)
1.10662378397766e+02	(-2.50786008431629e-04dB,-6.74654666663116e+00°)
1.10917481526240e+02	(-2.50740693850203e-04dB,-6.76211722657487e+00°)
1.11173172728159e+02	(-2.50695194328811e-04dB,-6.77772380696199e+00°)
1.11429453359173e+02	(-2.50649509348633e-04dB,-6.79336649171369e+00°)
1.11686324778056e+02	(-2.50603638384099e-04dB,-6.80904536495090e+00°)
1.11943788346715e+02	(-2.50557580925067e-04dB,-6.82476051099466e+00°)
1.12201845430196e+02	(-2.50511336449825e-04dB,-6.84051201436674e+00°)
1.12460497396692e+02	(-2.50464904460768e-04dB,-6.85629995979017e+00°)
1.12719745617551e+02	(-2.50418284429432e-04dB,-6.87212443218962e+00°)
1.12979591467279e+02	(-2.50371475863998e-04dB,-6.88798551669201e+00°)
1.13240036323555e+02	(-2.50324478251434e-04dB,-6.90388329862700e+00°)
1.13501081567231e+02	(-2.50277291096064e-04dB,-6.91981786352751e+00°)
1.13762728582343e+02	(-2.50229913898354e-04dB,-6.93578929713023e+00°)
1.14024978756116e+02	(-2.50182346156844e-04dB,-6.95179768537611e+00°)
1.14287833478977e+02	(-2.50134587390322e-04dB,-6.96784311441093e+00°)
1.14551294144553e+02	(-2.50086637097328e-04dB,-6.98392567058576e+00°)
1.14815362149688e+02	(-2.50038494796651e-04dB,-7.00004544045755e+00°)
1.15080038894443e+02	(-2.49990160006117e-04dB,-7.01620251078957e+00°)
1.15345325782109e+02	(-2.49941632240658e-04dB,-7.03239696855200e+00°)
1.15611224219209e+02	(-2.49892911028708e-04dB,-7.04862890092248e+00°)
1.15877735615512e+02	(-2.49843995897736e-04dB,-7.06489839528652e+00°)
1.16144861384034e+02	(-2.49794886375212e-04dB,-7.08120553923813e+00°)
1.16412602941049e+02	(-2.49745581994390e-04dB,-7.09755042058034e+00°)
1.16680961706096e+02	(-2.49696082294313e-04dB,-7.11393312732567e+00°)
1.16949939101987e+02	(-2.49646386818843e-04dB,-7.13035374769678e+00°)
1.17219536554813e+02	(-2.49596495113773e-04dB,-7.14681237012687e+00°)
1.17489755493952e+02	(-2.49546406732610e-04dB,-7.16330908326028e+00°)
1.17760597352080e+02	(-2.49496121215359e-04dB,-7.17984397595308e+00°)
1.18032063565172e+02	(-2.49445638139637e-04dB,-7.19641713727353e+00°)
1.18304155572516e+02	(-2.49394957057022e-04dB,-7.21302865650263e+00°)
1.18576874816716e+02	(-2.49344077541271e-04dB,-7.22967862313471e+00°)
1.18850222743701e+02	(-2.49292999155537e-04dB,-7.24636712687795e+00°)
1.19124200802737e+02	(-2.49241721486114e-04dB,-7.26309425765491e+00°)
1.19398810446427e+02	(-2.49190244107724e-04dB,-7.27986010560312e+00°)
1.19674053130724e+02	(-2.49138566613415e-04dB,-7.29666476107557e+00°)
1.19949930314937e+02	(-2.49086688590444e-04dB,-7.31350831464132e+00°)
1.20226443461741e+02	(-2.49034609640538e-04dB,-7.33039085708603e+00°)
1.20503594037179e+02	(-2.48982329367349e-04dB,-7.34731247941252e+00°)
1.20781383510677e+02	(-2.48929847370675e-04dB,-7.36427327284127e+00°)
1.21059813355048e+02	(-2.48877163266705e-04dB,-7.38127332881109e+00°)
1.21338885046497e+02	(-2.48824276685131e-04dB,-7.39831273897962e+00°)
1.21618600064636e+02	(-2.48771187238285e-04dB,-7.41539159522385e+00°)
1.21898959892486e+02	(-2.48717894561645e-04dB,-7.43250998964075e+00°)
1.22179966016487e+02	(-2.48664398297440e-04dB,-7.44966801454780e+00°)
1.22461619926504e+02	(-2.48610698088861e-04dB,-7.46686576248358e+00°)
1.22743923115840e+02	(-2.48556793576209e-04dB,-7.48410332620831e+00°)
1.23026877081238e+02	(-2.48502684426783e-04dB,-7.50138079870445e+00°)
1.23310483322890e+02	(-2.48448370302100e-04dB,-7.51869827317725e+00°)
1.23594743344450e+02	(-2.48393850865603e-04dB,-7.53605584305533e+00°)
1.23879658653036e+02	(-2.48339125801953e-04dB,-7.55345360199129e+00°)
1.24165230759240e+02	(-2.48284194792915e-04dB,-7.57089164386219e+00°)
1.24451461177138e+02	(-2.48229057531829e-04dB,-7.58837006277026e+00°)
1.24738351424294e+02	(-2.48173713716856e-04dB,-7.60588895304338e+00°)
1.25025903021771e+02	(-2.48118163049049e-04dB,-7.62344840923569e+00°)
1.25314117494141e+02	(-2.48062405249714e-04dB,-7.64104852612823e+00°)
1.25602996369487e+02	(-2.48006440047872e-04dB,-7.65868939872944e+00°)
1.25892541179416e+02	(-2.47950267158076e-04dB,-7.67637112227581e+00°)
1.26182753459066e+02	(-2.47893886330564e-04dB,-7.69409379223239e+00°)
1.26473634747114e+02	(-2.47837297304963e-04dB,-7.71185750429353e+00°)
1.26765186585784e+02	(-2.47780499843082e-04dB,-7.72966235438330e+00°)
1.27057410520853e+02	(-2.47723493705765e-04dB,-7.74750843865625e+00°)
1.27350308101665e+02	(-2.47666278671214e-04dB,-7.76539585349785e+00°)
1.27643880881134e+02	(-2.47608854517632e-04dB,-7.78332469552520e+00°)
1.27938130415752e+02	(-2.47551221037687e-04dB,-7.80129506158761e+00°)
1.28233058265601e+02	(-2.47493378039475e-04dB,-7.81930704876716e+00°)
1.28528665994361e+02	(-2.47435325324345e-04dB,-7.83736075437936e+00°)
1.28824955169313e+02	(-2.47377062716788e-04dB,-7.85545627597372e+00°)
1.29121927361353e+02	(-2.47318590052868e-04dB,-7.87359371133435e+00°)
1.29419584144998e+02	(-2.47259907161897e-04dB,-7.89177315848063e+00°)
1.29717927098395e+02	(-2.47201013911765e-04dB,-7.90999471566774e+00°)
1.30016957803328e+02	(-2.47141910156857e-04dB,-7.92825848138737e+00°)
1.30316677845229e+02	(-2.47082595768918e-04dB,-7.94656455436823e+00°)
1.30617088813183e+02	(-2.47023070635124e-04dB,-7.96491303357676e+00°)
1.30918192299940e+02	(-2.46963334650364e-04dB,-7.98330401821767e+00°)
1.31219989901920e+02	(-2.46903387723993e-04dB,-8.00173760773467e+00°)
1.31522483219223e+02	(-2.46843229775009e-04dB,-8.02021390181097e+00°)
1.31825673855640e+02	(-2.46782860730126e-04dB,-8.03873300036997e+00°)
1.32129563418657e+02	(-2.46722280540167e-04dB,-8.05729500357594e+00°)
1.32434153519466e+02	(-2.46661489153060e-04dB,-8.07590001183452e+00°)
1.32739445772973e+02	(-2.46600486540844e-04dB,-8.09454812579346e+00°)
1.33045441797808e+02	(-2.46539272689058e-04dB,-8.11323944634320e+00°)
1.33352143216332e+02	(-2.46477847583241e-04dB,-8.13197407461758e+00°)
1.33659551654643e+02	(-2.46416211239791e-04dB,-8.15075211199434e+00°)
1.33967668742593e+02	(-2.46354363674143e-04dB,-8.16957366009592e+00°)
1.34276496113786e+02	(-2.46292304927768e-04dB,-8.18843882078997e+00°)
1.34586035405594e+02	(-2.46230035044067e-04dB,-8.20734769619008e+00°)
1.34896288259165e+02	(-2.46167554086692e-04dB,-8.22630038865640e+00°)
1.35207256319427e+02	(-2.46104862142439e-04dB,-8.24529700079627e+00°)
1.35518941235103e+02	(-2.46041959298105e-04dB,-8.26433763546486e+00°)
1.35831344658715e+02	(-2.45978845659774e-04dB,-8.28342239576591e+00°)
1.36144468246594e+02	(-2.45915521354745e-04dB,-8.30255138505230e+00°)
1.36458313658892e+02	(-2.45851986527675e-04dB,-8.32172470692668e+00°)
1.36772882559584e+02	(-2.45788241325151e-04dB,-8.34094246524226e+00°)
1.37088176616484e+02	(-2.45724285932335e-04dB,-8.36020476410331e+00°)
1.37404197501251e+02	(-2.45660120524742e-04dB,-8.37951170786598e+00°)
1.37720946889394e+02	(-2.45595745311644e-04dB,-8.39886340113881e+00°)
1.38038426460288e+02	(-2.45531160525453e-04dB,-8.41825994878352e+00°)
1.38356637897177e+02	(-2.45466366388941e-04dB,-8.43770145591566e+00°)
1.38675582887188e+02	(-2.45401363175025e-04dB,-8.45718802790520e+00°)
1.38995263121334e+02	(-2.45336151154692e-04dB,-8.47671977037728e+00°)
1.39315680294529e+02	(-2.45270730624006e-04dB,-8.49629678921289e+00°)
1.39636836105593e+02	(-2.45205101895420e-04dB,-8.51591919054951e+00°)
1.39958732257261e+02	(-2.45139265304536e-04dB,-8.53558708078179e+00°)
1.40281370456195e+02	(-2.45073221200455e-04dB,-8.55530056656229e+00°)
1.40604752412990e+02	(-2.45006969957350e-04dB,-8.57505975480207e+00°)
1.40928879842186e+02	(-2.44940511962898e-04dB,-8.59486475267147e+00°)
1.41253754462274e+02	(-2.44873847632739e-04dB,-8.61471566760078e+00°)
1.41579377995707e+02	(-2.44806977401803e-04dB,-8.63461260728084e+00°)
1.41905752168908e+02	(-2.44739901718518e-04dB,-8.65455567966386e+00°)
1.42232878712281e+02	(-2.44672621066997e-04dB,-8.67454499296409e+00°)
1.42560759360218e+02	(-2.44605135938100e-04dB,-8.69458065565842e+00°)
1.42889395851109e+02	(-2.44537446857406e-04dB,-8.71466277648720e+00°)
1.43218789927353e+02	(-2.44469554370743e-04dB,-8.73479146445489e+00°)
1.43548943335364e+02	(-2.44401459027798e-04dB,-8.75496682883078e+00°)
1.43879857825583e+02	(-2.44333161436121e-04dB,-8.77518897914965e+00°)
1.44211535152486e+02	(-2.44264662199400e-04dB,-8.79545802521257e+00°)
1.44543977074592e+02	(-2.44195961959903e-04dB,-8.81577407708755e+00°)
1.44877185354475e+02	(-2.44127061374357e-04dB,-8.83613724511024e+00°)
1.45211161758773e+02	(-2.44057961131319e-04dB,-8.85654763988470e+00°)
1.45545908058195e+02	(-2.43988661944414e-04dB,-8.87700537228410e+00°)
1.45881426027534e+02	(-2.43919164553308e-04dB,-8.89751055345144e+00°)
1.46217717445671e+02	(-2.43849469727559e-04dB,-8.91806329480025e+00°)
1.46554784095590e+02	(-2.43779578247337e-04dB,-8.93866370801535e+00°)
1.46892627764385e+02	(-2.43709490934274e-04dB,-8.95931190505356e+00°)
1.47231250243271e+02	(-2.43639208641831e-04dB,-8.98000799814449e+00°)
1.47570653327588e+02	(-2.43568732240824e-04dB,-9.00075209979119e+00°)
1.47910838816819e+02	(-2.43498062636785e-04dB,-9.02154432277087e+00°)
1.48251808514594e+02	(-2.43427200757431e-04dB,-9.04238478013575e+00°)
1.48593564228699e+02	(-2.43356147561332e-04dB,-9.06327358521379e+00°)
1.48936107771090e+02	(-2.43284904049494e-04dB,-9.08421085160931e+00°)
1.49279440957898e+02	(-2.43213471243173e-04dB,-9.10519669320382e+00°)
1.49623565609442e+02	(-2.43141850191591e-04dB,-9.12623122415682e+00°)
1.49968483550236e+02	(-2.43070041979652e-04dB,-9.14731455890645e+00°)
1.50314196609001e+02	(-2.42998047730833e-04dB,-9.16844681217026e+00°)
1.50660706618673e+02	(-2.42925868587899e-04dB,-9.18962809894613e+00°)
1.51008015416413e+02	(-2.42853505730260e-04dB,-9.21085853451273e+00°)
1.51356124843619e+02	(-2.42780960386508e-04dB,-9.23213823443058e+00°)
1.51705036745932e+02	(-2.42708233796808e-04dB,-9.25346731454261e+00°)
1.52054752973248e+02	(-2.42635327256291e-04dB,-9.27484589097508e+00°)
1.52405275379728e+02	(-2.42562242078414e-04dB,-9.29627408013814e+00°)
1.52756605823806e+02	(-2.42488979620026e-04dB,-9.31775199872688e+00°)
1.53108746168202e+02	(-2.42415541273662e-04dB,-9.33927976372189e+00°)
1.53461698279928e+02	(-2.42341928470426e-04dB,-9.36085749239012e+00°)
1.53815464030302e+02	(-2.42268142682892e-04dB,-9.38248530228564e+00°)
1.54170045294954e+02	(-2.42194185408708e-04dB,-9.40416331125047e+00°)
1.54525443953840e+02	(-2.42120058202416e-04dB,-9.42589163741526e+00°)
1.54881661891247e+02	(-2.42045762638812e-04dB,-9.44767039920023e+00°)
1.55238700995807e+02	(-2.41971300347659e-04dB,-9.46949971531585e+00°)
1.55596563160506e+02	(-2.41896672989579e-04dB,-9.49137970476364e+00°)
1.55955250282694e+02	(-2.41821882278234e-04dB,-9.51331048683703e+00°)
1.56314764264094e+02	(-2.41746929960074e-04dB,-9.53529218112208e+00°)
1.56675107010813e+02	(-2.41671817822052e-04dB,-9.55732490749838e+00°)
1.57036280433354e+02	(-2.41596547701267e-04dB,-9.57940878613976e+00°)
1.57398286446620e+02	(-2.41521121477249e-04dB,-9.60154393751513e+00°)
1.57761126969933e+02	(-2.41445541075818e-04dB,-9.62373048238936e+00°)
1.58124803927037e+02	(-2.41369808462332e-04dB,-9.64596854182397e+00°)
1.58489319246110e+02	(-2.41293925657117e-04dB,-9.66825823717803e+00°)
1.58854674859776e+02	(-2.41217894717144e-04dB,-9.69059969010900e+00°)
1.59220872705115e+02	(-2.41141717754354e-04dB,-9.71299302257344e+00°)
1.59587914723672e+02	(-2.41065396926975e-04dB,-9.73543835682799e+00°)
1.59955802861465e+02	(-2.40988934446274e-04dB,-9.75793581543003e+00°)
1.60324539069002e+02	(-2.40912332564024e-04dB,-9.78048552123869e+00°)
1.60694125301286e+02	(-2.40835593594677e-04dB,-9.80308759741553e+00°)
1.61064563517825e+02	(-2.40758719892226e-04dB,-9.82574216742547e+00°)
1.61435855682647e+02	(-2.40681713875274e-04dB,-9.84844935503760e+00°)
1.61808003764305e+02	(-2.40604578001000e-04dB,-9.87120928432599e+00°)
1.62181009735891e+02	(-2.40527314802766e-04dB,-9.89402207967060e+00°)
1.62554875575047e+02	(-2.40449926835148e-04dB,-9.91688786575812e+00°)
1.62929603263970e+02	(-2.40372416744339e-04dB,-9.93980676758276e+00°)
1.63305194789432e+02	(-2.40294787213175e-04dB,-9.96277891044718e+00°)
1.63681652142779e+02	(-2.40217040984281e-04dB,-9.98580441996328e+00°)
1.64058977319952e+02	(-2.40139180858146e-04dB,-1.00088834220531e+01°)
1.64437172321491e+02	(-2.40061209696012e-04dB,-1.00320160429498e+01°)
1.64816239152549e+02	(-2.39983130425659e-04dB,-1.00552024091982e+01°)
1.65196179822900e+02	(-2.39904946027911e-04dB,-1.00784426476561e+01°)
1.65576996346951e+02	(-2.39826659536627e-04dB,-1.01017368854946e+01°)
1.65958690743754e+02	(-2.39748274076318e-04dB,-1.01250852501996e+01°)
1.66341265037015e+02	(-2.39669792806210e-04dB,-1.01484878695723e+01°)
1.66724721255104e+02	(-2.39591218970393e-04dB,-1.01719448717300e+01°)
1.67109061431069e+02	(-2.39512555865032e-04dB,-1.01954563851072e+01°)
1.67494287602642e+02	(-2.39433806868261e-04dB,-1.02190225384567e+01°)
1.67880401812254e+02	(-2.39354975408361e-04dB,-1.02426434608498e+01°)
1.68267406107045e+02	(-2.39276064998477e-04dB,-1.02663192816779e+01°)
1.68655302538872e+02	(-2.39197079206720e-04dB,-1.02900501306530e+01°)
1.69044093164324e+02	(-2.39118021692815e-04dB,-1.03138361378089e+01°)
1.69433780044731e+02	(-2.39038896162778e-04dB,-1.03376774335016e+01°)
1.69824365246172e+02	(-2.38959706419058e-04dB,-1.03615741484110e+01°)
1.70215850839493e+02	(-2.38880456332573e-04dB,-1.03855264135408e+01°)
1.70608238900310e+02	(-2.38801149838854e-04dB,-1.04095343602206e+01°)
1.71001531509027e+02	(-2.38721790955400e-04dB,-1.04335981201056e+01°)
1.71395730750840e+02	(-2.38642383786505e-04dB,-1.04577178251784e+01°)
1.71790838715757e+02	(-2.38562932504929e-04dB,-1.04818936077497e+01°)
1.72186857498599e+02	(-2.38483441369259e-04dB,-1.05061256004590e+01°)
1.72583789199018e+02	(-2.38403914717162e-04dB,-1.05304139362759e+01°)
1.72981635921508e+02	(-2.38324356972129e-04dB,-1.05547587485006e+01°)
1.73380399775412e+02	(-2.38244772633836e-04dB,-1.05791601707652e+01°)
1.73780082874935e+02	(-2.38165166299360e-04dB,-1.06036183370345e+01°)
1.74180687339159e+02	(-2.38085542642925e-04dB,-1.06281333816071e+01°)
1.74582215292048e+02	(-2.38005906422653e-04dB,-1.06527054391161e+01°)
1.74984668862463e+02	(-2.37926262504674e-04dB,-1.06773346445301e+01°)
1.75388050184174e+02	(-2.37846615826480e-04dB,-1.07020211331543e+01°)
1.75792361395867e+02	(-2.37766971421998e-04dB,-1.07267650406316e+01°)
1.76197604641161e+02	(-2.37687334426413e-04dB,-1.07515665029430e+01°)
1.76603782068614e+02	(-2.37607710057843e-04dB,-1.07764256564092e+01°)
1.77010895831740e+02	(-2.37528103641450e-04dB,-1.08013426376912e+01°)
1.77418948089014e+02	(-2.37448520591115e-04dB,-1.08263175837913e+01°)
1.77827941003890e+02	(-2.37368966422942e-04dB,-1.08513506320544e+01°)
1.78237876744807e+02	(-2.37289446764899e-04dB,-1.08764419201686e+01°)
1.78648757485203e+02	(-2.37209967320173e-04dB,-1.09015915861662e+01°)
1.79060585403527e+02	(-2.37130533919246e-04dB,-1.09267997684249e+01°)
1.79473362683250e+02	(-2.37051152488071e-04dB,-1.09520666056689e+01°)
1.79887091512876e+02	(-2.36971829060608e-04dB,-1.09773922369696e+01°)
1.80301774085954e+02	(-2.36892569779789e-04dB,-1.10027768017465e+01°)
1.80717412601090e+02	(-2.36813380892696e-04dB,-1.10282204397688e+01°)
1.81134009261958e+02	(-2.36734268771776e-04dB,-1.10537232911558e+01°)
1.81551566277311e+02	(-2.36655239891699e-04dB,-1.10792854963782e+01°)
1.81970085860996e+02	(-2.36576300840927e-04dB,-1.11049071962589e+01°)
1.82389570231961e+02	(-2.36497458325573e-04dB,-1.11305885319746e+01°)
1.82810021614272e+02	(-2.36418719173258e-04dB,-1.11563296450560e+01°)
1.83231442237119e+02	(-2.36340090327328e-04dB,-1.11821306773894e+01°)
1.83653834334832e+02	(-2.36261578863241e-04dB,-1.12079917712176e+01°)
1.84077200146893e+02	(-2.36183191970251e-04dB,-1.12339130691410e+01°)
1.84501541917945e+02	(-2.36104936955264e-04dB,-1.12598947141183e+01°)
1.84926861897805e+02	(-2.36026821278514e-04dB,-1.12859368494681e+01°)
1.85353162341478e+02	(-2.35948852497639e-04dB,-1.13120396188694e+01°)
1.85780445509167e+02	(-2.35871038324570e-04dB,-1.13382031663630e+01°)
1.86208713666284e+02	(-2.35793386600463e-04dB,-1.13644276363526e+01°)
1.86637969083464e+02	(-2.35715905287017e-04dB,-1.13907131736054e+01°)
1.87068214036577e+02	(-2.35638602503121e-04dB,-1.14170599232539e+01°)
1.87499450806739e+02	(-2.35561486489171e-04dB,-1.14434680307962e+01°)
1.87931681680324e+02	(-2.35484565637932e-04dB,-1.14699376420977e+01°)
1.88364908948977e+02	(-2.35407848487786e-04dB,-1.14964689033918e+01°)
1.88799134909627e+02	(-2.35331343707301e-04dB,-1.15230619612811e+01°)
1.89234361864495e+02	(-2.35255060121272e-04dB,-1.15497169627385e+01°)
1.89670592121112e+02	(-2.35179006708789e-04dB,-1.15764340551083e+01°)
1.90107827992327e+02	(-2.35103192593596e-04dB,-1.16032133861073e+01°)
1.90546071796322e+02	(-2.35027627055659e-04dB,-1.16300551038257e+01°)
